<Qucs Dataset 0.0.15>
<indep x 20>
  +5.00000000000e+00
  +7.36842105263e+00
  +9.73684210526e+00
  +1.21052631579e+01
  +1.44736842105e+01
  +1.68421052632e+01
  +1.92105263158e+01
  +2.15789473684e+01
  +2.39473684211e+01
  +2.63157894737e+01
  +2.86842105263e+01
  +3.10526315789e+01
  +3.34210526316e+01
  +3.57894736842e+01
  +3.81578947368e+01
  +4.05263157895e+01
  +4.28947368421e+01
  +4.52631578947e+01
  +4.76315789474e+01
  +5.00000000000e+01
</indep>
<dep V1.I x>
  -3.46000000000e+00
  -2.79744680851e+00
  -2.34785714286e+00
  -2.02276923077e+00
  -1.77675675676e+00
  -1.58409638554e+00
  -1.42913043478e+00
  -1.30178217822e+00
  -1.19527272727e+00
  -1.10487394958e+00
  -1.02718750000e+00
  -9.59708029197e-01
  -9.00547945205e-01
  -8.48258064516e-01
  -8.01707317073e-01
  -7.60000000000e-01
  -7.22417582418e-01
  -6.88376963351e-01
  -6.57400000000e-01
  -6.29090909091e-01
</dep>
<dep izeja.V x>
  +1.73000000000e+01
  +2.06127659574e+01
  +2.28607142857e+01
  +2.44861538462e+01
  +2.57162162162e+01
  +2.66795180723e+01
  +2.74543478261e+01
  +2.80910891089e+01
  +2.86236363636e+01
  +2.90756302521e+01
  +2.94640625000e+01
  +2.98014598540e+01
  +3.00972602740e+01
  +3.03587096774e+01
  +3.05914634146e+01
  +3.08000000000e+01
  +3.09879120879e+01
  +3.11581151832e+01
  +3.13130000000e+01
  +3.14545454545e+01
</dep>
<dep _net0.V x>
  +3.46000000000e+01
  +3.46000000000e+01
  +3.46000000000e+01
  +3.46000000000e+01
  +3.46000000000e+01
  +3.46000000000e+01
  +3.46000000000e+01
  +3.46000000000e+01
  +3.46000000000e+01
  +3.46000000000e+01
  +3.46000000000e+01
  +3.46000000000e+01
  +3.46000000000e+01
  +3.46000000000e+01
  +3.46000000000e+01
  +3.46000000000e+01
  +3.46000000000e+01
  +3.46000000000e+01
  +3.46000000000e+01
  +3.46000000000e+01
</dep>
