<Qucs Dataset 0.0.18>
<indep x 10>
  +5.00000000000e+00
  +1.00000000000e+01
  +1.50000000000e+01
  +2.00000000000e+01
  +2.50000000000e+01
  +3.00000000000e+01
  +3.50000000000e+01
  +4.00000000000e+01
  +4.50000000000e+01
  +5.00000000000e+01
</indep>
<dep V1.I x>
  -3.46000000000e+00
  -2.30666666667e+00
  -1.73000000000e+00
  -1.38400000000e+00
  -1.15333333333e+00
  -9.88571428571e-01
  -8.65000000000e-01
  -7.68888888889e-01
  -6.92000000000e-01
  -6.29090909091e-01
</dep>
<dep izeja.V x>
  +1.73000000000e+01
  +2.30666666667e+01
  +2.59500000000e+01
  +2.76800000000e+01
  +2.88333333333e+01
  +2.96571428571e+01
  +3.02750000000e+01
  +3.07555555556e+01
  +3.11400000000e+01
  +3.14545454545e+01
</dep>
<dep _net0.V x>
  +3.46000000000e+01
  +3.46000000000e+01
  +3.46000000000e+01
  +3.46000000000e+01
  +3.46000000000e+01
  +3.46000000000e+01
  +3.46000000000e+01
  +3.46000000000e+01
  +3.46000000000e+01
  +3.46000000000e+01
</dep>
